
T0D0C 000:295 SEGGER J-Link V5.10h Log File (0000ms, 0266ms total)
T0D0C 000:295 DLL Compiled: Jan 21 2016 19:24:29 (0000ms, 0266ms total)
T0D0C 000:295 Logging started @ 2018-01-11 10:30 (0000ms, 0266ms total)
T0D0C 000:295 JLINK_SetWarnOutHandler(...) (0000ms, 0266ms total)
T0D0C 000:295 JLINK_OpenEx(...)
Firmware: J-Link OB-SAM3U128 V3 compiled Jul 19 2017 09:54:44
Hardware: V3.00
S/N: 483028335  returns O.K. (0260ms, 0526ms total)
T0D0C 000:555 JLINK_SetErrorOutHandler(...) (0000ms, 0526ms total)
T0D0C 000:555 JLINK_ExecCommand("ProjectFile = "D:\larenia.zhang\×ÀÃæ\123\A01-Marines\Application\application\keil\JLinkSettings.ini"", ...)Device "CORTEX-M4" selected.  returns 0x00 (0004ms, 0530ms total)
T0D0C 000:561 JLINK_ExecCommand("Device = AMAPH1KK-KBR", ...)Device "CORTEX-M4" selected.  returns 0x00 (0002ms, 0532ms total)
T0D0C 000:563 JLINK_ExecCommand("DisableConnectionTimeout", ...)  returns 0x01 (0000ms, 0532ms total)
T0D0C 000:563 JLINK_GetHardwareVersion()  returns 0x7530 (0000ms, 0532ms total)
T0D0C 000:563 JLINK_GetDLLVersion()  returns 51008 (0000ms, 0532ms total)
T0D0C 000:563 JLINK_GetFirmwareString(...) (0000ms, 0532ms total)
T0D0C 000:568 JLINK_GetDLLVersion()  returns 51008 (0000ms, 0532ms total)
T0D0C 000:568 JLINK_GetCompileDateTime() (0000ms, 0532ms total)
T0D0C 000:569 JLINK_GetFirmwareString(...) (0000ms, 0532ms total)
T0D0C 000:571 JLINK_GetHardwareVersion()  returns 0x7530 (0000ms, 0532ms total)
T0D0C 000:576 JLINK_TIF_Select(JLINKARM_TIF_SWD)  returns 0x00 (0001ms, 0533ms total)
T0D0C 000:577 JLINK_SetSpeed(5000) (0000ms, 0533ms total)
T0D0C 000:577 JLINK_GetId() >0x108 TIF>Found SWD-DP with ID 0x2BA01477 >0x0D TIF> >0x28 TIF> >0x0D TIF> >0x28 TIF> >0x0D TIF> >0x28 TIF> >0x0D TIF> >0x28 TIF> >0x0D TIF> >0x21 TIF> >0x0D TIF> >0x28 TIF> >0x0D TIF> >0x28 TIF> >0x0D TIF> >0x21 TIF> >0x0D TIF> >0x21 TIF> >0x0D TIF> >0x21 TIF> >0x0D TIF> >0x28 TIF> >0x0D TIF> >0x28 TIF> >0x0D TIF> >0x28 TIF> >0x0D TIF> >0x21 TIF> >0x0D TIF> >0x21 TIF> >0x0D TIF> >0x28 TIF> >0x0D TIF> >0x21 TIF> >0x0D TIF> >0x21 TIF>Found Cortex-M4 r0p1, Little endian.
 -- CPU_ReadMem(4 bytes @ 0xE000EDF0) -- CPU_ReadMem(4 bytes @ 0xE0002000)FPUnit: 6 code (BP) slots and 2 literal slots -- CPU_ReadMem(4 bytes @ 0xE000EDFC) -- CPU_ReadMem(4 bytes @ 0xE0001000) -- CPU_WriteMem(4 bytes @ 0xE0001000) -- CPU_ReadMem(4 bytes @ 0xE000ED88) -- CPU_WriteMem(4 bytes @ 0xE000ED88) -- CPU_ReadMem(4 bytes @ 0xE000ED88) -- CPU_WriteMem(4 bytes @ 0xE000ED88)CoreSight components:ROMTbl 0 @ E00FF000 -- CPU_ReadMem(16 bytes @ 0xE00FF000) -- CPU_ReadMem(16 bytes @ 0xE000EFF0)
 -- CPU_ReadMem(16 bytes @ 0xE000EFE0)ROMTbl 0 [0]: FFF0F000, CID: B105E00D, PID: 000BB00C SCS -- CPU_ReadMem(16 bytes @ 0xE0001FF0) -- CPU_ReadMem(16 bytes @ 0xE0001FE0)ROMTbl 0 [1]: FFF02000, CID: B105E00D, PID: 003BB002 DWT -- CPU_ReadMem(16 bytes @ 0xE0002FF0) -- CPU_ReadMem(16 bytes @ 0xE0002FE0)ROMTbl 0 [2]: FFF03000, CID: B105E00D, PID: 002BB003 FPB -- CPU_ReadMem(16 bytes @ 0xE0000FF0) -- CPU_ReadMem(16 bytes @ 0xE0000FE0)ROMTbl 0 [3]: FFF01000, CID: B105E00D, PID: 003BB001 ITM
 -- CPU_ReadMem(16 bytes @ 0xE00FF010) -- CPU_ReadMem(16 bytes @ 0xE0040FF0) -- CPU_ReadMem(16 bytes @ 0xE0040FE0)ROMTbl 0 [4]: FFF41000, CID: B105900D, PID: 000BB9A1 TPIU >0x0D TIF> >0x21 TIF>  returns 0x2BA01477 (0027ms, 0560ms total)
T0D0C 000:604 JLINK_GetDLLVersion()  returns 51008 (0000ms, 0560ms total)
T0D0C 000:604 JLINK_CORE_GetFound()  returns 0xE0000FF (0000ms, 0560ms total)
T0D0C 000:604 JLINK_GetDebugInfo(0x100) -- Value=0xE00FF000  returns 0x00 (0000ms, 0560ms total)
T0D0C 000:606 JLINK_GetDebugInfo(0x100) -- Value=0xE00FF000  returns 0x00 (0000ms, 0560ms total)
T0D0C 000:606 JLINK_GetDebugInfo(0x101) -- Value=0x00000000  returns 0x00 (0000ms, 0560ms total)
T0D0C 000:606 JLINK_ReadMem (0xE0041FF0, 0x0010 Bytes, ...) -- CPU is running -- CPU_ReadMem(16 bytes @ 0xE0041FF0) - Data: 00 00 00 00 00 00 00 00 00 00 00 00 00 00 00 00  returns 0x00 (0000ms, 0560ms total)
T0D0C 000:606 JLINK_GetDebugInfo(0x102) -- Value=0x00000000  returns 0x00 (0000ms, 0560ms total)
T0D0C 000:606 JLINK_GetDebugInfo(0x103) -- Value=0xE0040000  returns 0x00 (0000ms, 0560ms total)
T0D0C 000:606 JLINK_GetDebugInfo(0x104) -- Value=0xE0000000  returns 0x00 (0000ms, 0560ms total)
T0D0C 000:606 JLINK_GetDebugInfo(0x105) -- Value=0xE0001000  returns 0x00 (0000ms, 0560ms total)
T0D0C 000:606 JLINK_GetDebugInfo(0x106) -- Value=0xE0002000  returns 0x00 (0000ms, 0560ms total)
T0D0C 000:606 JLINK_GetDebugInfo(0x107) -- Value=0xE000E000  returns 0x00 (0000ms, 0560ms total)
T0D0C 000:606 JLINK_GetDebugInfo(0x10C) -- Value=0xE000EDF0  returns 0x00 (0000ms, 0560ms total)
T0D0C 000:606 JLINK_ReadMemU32(0xE000EF40, 0x0001 Items, ...) -- CPU is running -- CPU_ReadMem(4 bytes @ 0xE000EF40) - Data: 21 00 11 10  returns 0x01 (0001ms, 0561ms total)
T0D0C 000:607 JLINK_ReadMemU32(0xE000EF44, 0x0001 Items, ...) -- CPU is running -- CPU_ReadMem(4 bytes @ 0xE000EF44) - Data: 11 00 00 11  returns 0x01 (0000ms, 0561ms total)
T0D0C 000:607 JLINK_ReadMemU32(0xE000ED00, 0x0001 Items, ...) -- CPU is running -- CPU_ReadMem(4 bytes @ 0xE000ED00) - Data: 41 C2 0F 41  returns 0x01 (0001ms, 0562ms total)
T0D0C 000:608 JLINK_SetResetType(JLINKARM_RESET_TYPE_NORMAL)  returns JLINKARM_RESET_TYPE_NORMAL (0000ms, 0562ms total)
T0D0C 000:608 JLINK_Reset() -- CPU is running -- CPU_WriteMem(4 bytes @ 0xE000EDF0) -- CPU is running -- CPU_WriteMem(4 bytes @ 0xE000EDFC) >0x35 TIF> -- CPU is running -- CPU_WriteMem(4 bytes @ 0xE000ED0C) -- CPU is running -- CPU_ReadMem(4 bytes @ 0xE000EDF0) -- CPU is running -- CPU_ReadMem(4 bytes @ 0xE000EDF0) -- CPU is running -- CPU_ReadMem(4 bytes @ 0xE000EDF0) -- CPU is running -- CPU_ReadMem(4 bytes @ 0xE000EDF0) -- CPU is running -- CPU_ReadMem(4 bytes @ 0xE000EDF0) -- CPU is running
 -- CPU_ReadMem(4 bytes @ 0xE000EDF0) -- CPU is running -- CPU_WriteMem(4 bytes @ 0xE000EDF0) -- CPU is running -- CPU_WriteMem(4 bytes @ 0xE000EDFC) -- CPU is running -- CPU_ReadMem(4 bytes @ 0xE000EDF0) -- CPU_WriteMem(4 bytes @ 0xE0002000) -- CPU_ReadMem(4 bytes @ 0xE000EDFC) -- CPU_ReadMem(4 bytes @ 0xE0001000) (0016ms, 0578ms total)
T0D0C 000:624 JLINK_Halt()  returns 0x00 (0000ms, 0578ms total)
T0D0C 000:624 JLINK_IsHalted()  returns TRUE (0000ms, 0578ms total)
T0D0C 000:624 JLINK_ReadMemU32(0xE000EDF0, 0x0001 Items, ...) -- CPU_ReadMem(4 bytes @ 0xE000EDF0) - Data: 03 00 03 00  returns 0x01 (0000ms, 0578ms total)
T0D0C 000:624 JLINK_WriteU32(0xE000EDF0, 0xA05F0003) -- CPU_WriteMem(4 bytes @ 0xE000EDF0)  returns 0x00 (0000ms, 0578ms total)
T0D0C 000:624 JLINK_WriteU32(0xE000EDFC, 0x01000000) -- CPU_WriteMem(4 bytes @ 0xE000EDFC)  returns 0x00 (0001ms, 0579ms total)
T0D0C 000:630 JLINK_GetHWStatus(...)  returns 0x00 (0000ms, 0579ms total)
T0D0C 000:633 JLINK_GetNumBPUnits(Type = 0xFFFFFF00)  returns 0x06 (0000ms, 0579ms total)
T0D0C 000:633 JLINK_GetNumBPUnits(Type = 0xF0)  returns 0x2000 (0000ms, 0579ms total)
T0D0C 000:634 JLINK_GetNumWPUnits()  returns 0x04 (0000ms, 0580ms total)
T0D0C 000:637 JLINK_GetSpeed()  returns 0x1388 (0000ms, 0580ms total)
T0D0C 000:639 JLINK_ReadMemU32(0xE000E004, 0x0001 Items, ...) -- CPU_ReadMem(4 bytes @ 0xE000E004) - Data: 00 00 00 00  returns 0x01 (0001ms, 0581ms total)
T0D0C 000:640 JLINK_ReadMemU32(0xE000E004, 0x0001 Items, ...) -- CPU_ReadMem(4 bytes @ 0xE000E004) - Data: 00 00 00 00  returns 0x01 (0000ms, 0581ms total)
T0D0C 000:640 JLINK_WriteMem(0xE0001000, 0x001C Bytes, ...) - Data: 01 00 00 00 00 00 00 00 00 00 00 00 00 00 00 00 ... -- CPU_WriteMem(28 bytes @ 0xE0001000)  returns 0x1C (0001ms, 0582ms total)
T0D0C 000:641 JLINK_ReadMem (0xE0001000, 0x001C Bytes, ...) -- CPU_ReadMem(28 bytes @ 0xE0001000) - Data: 01 00 00 40 00 00 00 00 00 00 00 00 00 00 00 00 ...  returns 0x00 (0001ms, 0583ms total)
T0D0C 000:642 JLINK_Halt()  returns 0x00 (0000ms, 0583ms total)
T0D0C 000:642 JLINK_IsHalted()  returns TRUE (0000ms, 0583ms total)
T0D0C 000:643 JLINK_WriteMem(0x10000000, 0x019C Bytes, ...) - Data: 00 BE 0A E0 0D 78 2D 06 68 40 08 24 40 00 00 D3 ... -- CPU_WriteMem(412 bytes @ 0x10000000)  returns 0x19C (0004ms, 0587ms total)
T0D0C 000:647 JLINK_WriteReg(R0, 0x00000000)  returns 0x00 (0000ms, 0587ms total)
T0D0C 000:647 JLINK_WriteReg(R1, 0x02DC6C00)  returns 0x00 (0000ms, 0587ms total)
T0D0C 000:647 JLINK_WriteReg(R2, 0x00000001)  returns 0x00 (0000ms, 0587ms total)
T0D0C 000:647 JLINK_WriteReg(R3, 0x00000000)  returns 0x00 (0000ms, 0587ms total)
T0D0C 000:647 JLINK_WriteReg(R4, 0x00000000)  returns 0x00 (0000ms, 0587ms total)
T0D0C 000:647 JLINK_WriteReg(R5, 0x00000000)  returns 0x00 (0000ms, 0587ms total)
T0D0C 000:647 JLINK_WriteReg(R6, 0x00000000)  returns 0x00 (0000ms, 0587ms total)
T0D0C 000:647 JLINK_WriteReg(R7, 0x00000000)  returns 0x00 (0000ms, 0587ms total)
T0D0C 000:647 JLINK_WriteReg(R8, 0x00000000)  returns 0x00 (0000ms, 0587ms total)
T0D0C 000:647 JLINK_WriteReg(R9, 0x10000178)  returns 0x00 (0000ms, 0587ms total)
T0D0C 000:647 JLINK_WriteReg(R10, 0x00000000)  returns 0x00 (0000ms, 0587ms total)
T0D0C 000:647 JLINK_WriteReg(R11, 0x00000000)  returns 0x00 (0000ms, 0587ms total)
T0D0C 000:647 JLINK_WriteReg(R12, 0x00000000)  returns 0x00 (0000ms, 0587ms total)
T0D0C 000:647 JLINK_WriteReg(R13 (SP), 0x10004000)  returns 0x00 (0000ms, 0587ms total)
T0D0C 000:647 JLINK_WriteReg(R14, 0x10000001)  returns 0x00 (0000ms, 0587ms total)
T0D0C 000:647 JLINK_WriteReg(R15 (PC), 0x10000038)  returns 0x00 (0000ms, 0587ms total)
T0D0C 000:647 JLINK_WriteReg(XPSR, 0x01000000)  returns 0x00 (0000ms, 0587ms total)
T0D0C 000:647 JLINK_WriteReg(MSP, 0x10004000)  returns 0x00 (0000ms, 0587ms total)
T0D0C 000:647 JLINK_WriteReg(PSP, 0x10004000)  returns 0x00 (0000ms, 0587ms total)
T0D0C 000:647 JLINK_WriteReg(CFBP, 0x00000000)  returns 0x00 (0000ms, 0587ms total)
T0D0C 000:647 JLINK_SetBPEx(Addr = 0x10000000, Type = 0xFFFFFFF2)  returns 0x00000001 (0000ms, 0587ms total)
T0D0C 000:647 JLINK_Go() -- CPU_WriteMem(4 bytes @ 0xE0002000) -- CPU_ReadMem(4 bytes @ 0xE0001000) -- CPU_WriteMem(4 bytes @ 0xE0002008) -- CPU_WriteMem(4 bytes @ 0xE000200C) -- CPU_WriteMem(4 bytes @ 0xE0002010) -- CPU_WriteMem(4 bytes @ 0xE0002014) -- CPU_WriteMem(4 bytes @ 0xE0002018) -- CPU_WriteMem(4 bytes @ 0xE000201C) -- CPU_WriteMem(4 bytes @ 0xE0001004) (0004ms, 0591ms total)
T0D0C 000:651 JLINK_IsHalted()  returns TRUE (0002ms, 0593ms total)
T0D0C 000:653 JLINK_ReadReg(R15 (PC))  returns 0x10000000 (0000ms, 0591ms total)
T0D0C 000:653 JLINK_ClrBPEx(BPHandle = 0x00000001)  returns 0x00 (0000ms, 0591ms total)
T0D0C 000:653 JLINK_ReadReg(R0)  returns 0x00000000 (0000ms, 0591ms total)
T0D0C 000:654 JLINK_WriteReg(R0, 0x00000000)  returns 0x00 (0000ms, 0591ms total)
T0D0C 000:654 JLINK_WriteReg(R1, 0x00002000)  returns 0x00 (0000ms, 0591ms total)
T0D0C 000:654 JLINK_WriteReg(R2, 0x000000FF)  returns 0x00 (0000ms, 0591ms total)
T0D0C 000:654 JLINK_WriteReg(R3, 0x00000000)  returns 0x00 (0000ms, 0591ms total)
T0D0C 000:654 JLINK_WriteReg(R4, 0x00000000)  returns 0x00 (0000ms, 0591ms total)
T0D0C 000:654 JLINK_WriteReg(R5, 0x00000000)  returns 0x00 (0000ms, 0591ms total)
T0D0C 000:654 JLINK_WriteReg(R6, 0x00000000)  returns 0x00 (0000ms, 0591ms total)
T0D0C 000:654 JLINK_WriteReg(R7, 0x00000000)  returns 0x00 (0000ms, 0591ms total)
T0D0C 000:654 JLINK_WriteReg(R8, 0x00000000)  returns 0x00 (0000ms, 0591ms total)
T0D0C 000:654 JLINK_WriteReg(R9, 0x10000178)  returns 0x00 (0000ms, 0591ms total)
T0D0C 000:654 JLINK_WriteReg(R10, 0x00000000)  returns 0x00 (0000ms, 0591ms total)
T0D0C 000:654 JLINK_WriteReg(R11, 0x00000000)  returns 0x00 (0000ms, 0591ms total)
T0D0C 000:654 JLINK_WriteReg(R12, 0x00000000)  returns 0x00 (0000ms, 0591ms total)
T0D0C 000:654 JLINK_WriteReg(R13 (SP), 0x10004000)  returns 0x00 (0000ms, 0591ms total)
T0D0C 000:654 JLINK_WriteReg(R14, 0x10000001)  returns 0x00 (0000ms, 0591ms total)
T0D0C 000:654 JLINK_WriteReg(R15 (PC), 0x10000020)  returns 0x00 (0000ms, 0591ms total)
T0D0C 000:654 JLINK_WriteReg(XPSR, 0x01000000)  returns 0x00 (0000ms, 0591ms total)
T0D0C 000:654 JLINK_WriteReg(MSP, 0x10004000)  returns 0x00 (0000ms, 0591ms total)
T0D0C 000:654 JLINK_WriteReg(PSP, 0x10004000)  returns 0x00 (0000ms, 0591ms total)
T0D0C 000:654 JLINK_WriteReg(CFBP, 0x00000000)  returns 0x00 (0000ms, 0591ms total)
T0D0C 000:654 JLINK_SetBPEx(Addr = 0x10000000, Type = 0xFFFFFFF2)  returns 0x00000002 (0000ms, 0591ms total)
T0D0C 000:654 JLINK_Go() -- CPU_WriteMem(4 bytes @ 0xE0002000) -- CPU_ReadMem(4 bytes @ 0xE0001000) (0002ms, 0593ms total)
T0D0C 000:656 JLINK_IsHalted()  returns TRUE (0003ms, 0596ms total)
T0D0C 000:659 JLINK_ReadReg(R15 (PC))  returns 0x10000000 (0000ms, 0593ms total)
T0D0C 000:659 JLINK_ClrBPEx(BPHandle = 0x00000002)  returns 0x00 (0000ms, 0593ms total)
T0D0C 000:659 JLINK_ReadReg(R0)  returns 0x00000001 (0000ms, 0593ms total)
T0D0C 000:659 JLINK_WriteReg(R0, 0x00000000)  returns 0x00 (0000ms, 0593ms total)
T0D0C 000:659 JLINK_WriteReg(R1, 0x00002000)  returns 0x00 (0000ms, 0593ms total)
T0D0C 000:659 JLINK_WriteReg(R2, 0x000000FF)  returns 0x00 (0000ms, 0593ms total)
T0D0C 000:659 JLINK_WriteReg(R3, 0x00000000)  returns 0x00 (0000ms, 0593ms total)
T0D0C 000:659 JLINK_WriteReg(R4, 0x00000000)  returns 0x00 (0000ms, 0593ms total)
T0D0C 000:659 JLINK_WriteReg(R5, 0x00000000)  returns 0x00 (0000ms, 0593ms total)
T0D0C 000:659 JLINK_WriteReg(R6, 0x00000000)  returns 0x00 (0000ms, 0593ms total)
T0D0C 000:659 JLINK_WriteReg(R7, 0x00000000)  returns 0x00 (0000ms, 0593ms total)
T0D0C 000:659 JLINK_WriteReg(R8, 0x00000000)  returns 0x00 (0000ms, 0593ms total)
T0D0C 000:659 JLINK_WriteReg(R9, 0x10000178)  returns 0x00 (0000ms, 0593ms total)
T0D0C 000:659 JLINK_WriteReg(R10, 0x00000000)  returns 0x00 (0000ms, 0593ms total)
T0D0C 000:659 JLINK_WriteReg(R11, 0x00000000)  returns 0x00 (0000ms, 0593ms total)
T0D0C 000:659 JLINK_WriteReg(R12, 0x00000000)  returns 0x00 (0000ms, 0593ms total)
T0D0C 000:659 JLINK_WriteReg(R13 (SP), 0x10004000)  returns 0x00 (0000ms, 0593ms total)
T0D0C 000:659 JLINK_WriteReg(R14, 0x10000001)  returns 0x00 (0000ms, 0593ms total)
T0D0C 000:659 JLINK_WriteReg(R15 (PC), 0x1000005E)  returns 0x00 (0000ms, 0593ms total)
T0D0C 000:659 JLINK_WriteReg(XPSR, 0x01000000)  returns 0x00 (0000ms, 0593ms total)
T0D0C 000:659 JLINK_WriteReg(MSP, 0x10004000)  returns 0x00 (0000ms, 0593ms total)
T0D0C 000:659 JLINK_WriteReg(PSP, 0x10004000)  returns 0x00 (0000ms, 0593ms total)
T0D0C 000:659 JLINK_WriteReg(CFBP, 0x00000000)  returns 0x00 (0000ms, 0593ms total)
T0D0C 000:659 JLINK_SetBPEx(Addr = 0x10000000, Type = 0xFFFFFFF2)  returns 0x00000003 (0000ms, 0593ms total)
T0D0C 000:659 JLINK_Go() -- CPU_WriteMem(4 bytes @ 0xE0002000) -- CPU_ReadMem(4 bytes @ 0xE0001000) (0002ms, 0595ms total)
T0D0C 000:661 JLINK_IsHalted()  returns FALSE (0000ms, 0595ms total)
T0D0C 000:702 JLINK_IsHalted()  returns TRUE (0002ms, 0597ms total)
T0D0C 000:704 JLINK_ReadReg(R15 (PC))  returns 0x10000000 (0000ms, 0595ms total)
T0D0C 000:704 JLINK_ClrBPEx(BPHandle = 0x00000003)  returns 0x00 (0000ms, 0595ms total)
T0D0C 000:704 JLINK_ReadReg(R0)  returns 0x00000000 (0000ms, 0595ms total)
T0D0C 000:705 JLINK_WriteReg(R0, 0x00002000)  returns 0x00 (0000ms, 0595ms total)
T0D0C 000:705 JLINK_WriteReg(R1, 0x00002000)  returns 0x00 (0000ms, 0595ms total)
T0D0C 000:705 JLINK_WriteReg(R2, 0x000000FF)  returns 0x00 (0000ms, 0595ms total)
T0D0C 000:705 JLINK_WriteReg(R3, 0x00000000)  returns 0x00 (0000ms, 0595ms total)
T0D0C 000:705 JLINK_WriteReg(R4, 0x00000000)  returns 0x00 (0000ms, 0595ms total)
T0D0C 000:705 JLINK_WriteReg(R5, 0x00000000)  returns 0x00 (0000ms, 0595ms total)
T0D0C 000:705 JLINK_WriteReg(R6, 0x00000000)  returns 0x00 (0000ms, 0595ms total)
T0D0C 000:705 JLINK_WriteReg(R7, 0x00000000)  returns 0x00 (0000ms, 0595ms total)
T0D0C 000:705 JLINK_WriteReg(R8, 0x00000000)  returns 0x00 (0000ms, 0595ms total)
T0D0C 000:705 JLINK_WriteReg(R9, 0x10000178)  returns 0x00 (0000ms, 0595ms total)
T0D0C 000:705 JLINK_WriteReg(R10, 0x00000000)  returns 0x00 (0000ms, 0595ms total)
T0D0C 000:705 JLINK_WriteReg(R11, 0x00000000)  returns 0x00 (0000ms, 0595ms total)
T0D0C 000:705 JLINK_WriteReg(R12, 0x00000000)  returns 0x00 (0000ms, 0595ms total)
T0D0C 000:705 JLINK_WriteReg(R13 (SP), 0x10004000)  returns 0x00 (0000ms, 0595ms total)
T0D0C 000:705 JLINK_WriteReg(R14, 0x10000001)  returns 0x00 (0000ms, 0595ms total)
T0D0C 000:705 JLINK_WriteReg(R15 (PC), 0x10000020)  returns 0x00 (0000ms, 0595ms total)
T0D0C 000:705 JLINK_WriteReg(XPSR, 0x01000000)  returns 0x00 (0000ms, 0595ms total)
T0D0C 000:705 JLINK_WriteReg(MSP, 0x10004000)  returns 0x00 (0000ms, 0595ms total)
T0D0C 000:705 JLINK_WriteReg(PSP, 0x10004000)  returns 0x00 (0000ms, 0595ms total)
T0D0C 000:705 JLINK_WriteReg(CFBP, 0x00000000)  returns 0x00 (0000ms, 0595ms total)
T0D0C 000:705 JLINK_SetBPEx(Addr = 0x10000000, Type = 0xFFFFFFF2)  returns 0x00000004 (0000ms, 0595ms total)
T0D0C 000:705 JLINK_Go() -- CPU_WriteMem(4 bytes @ 0xE0002000) -- CPU_ReadMem(4 bytes @ 0xE0001000) (0002ms, 0597ms total)
T0D0C 000:707 JLINK_IsHalted()  returns TRUE (0003ms, 0600ms total)
T0D0C 000:710 JLINK_ReadReg(R15 (PC))  returns 0x10000000 (0000ms, 0597ms total)
T0D0C 000:710 JLINK_ClrBPEx(BPHandle = 0x00000004)  returns 0x00 (0000ms, 0597ms total)
T0D0C 000:710 JLINK_ReadReg(R0)  returns 0x00000001 (0000ms, 0597ms total)
T0D0C 000:710 JLINK_WriteReg(R0, 0x00002000)  returns 0x00 (0000ms, 0597ms total)
T0D0C 000:710 JLINK_WriteReg(R1, 0x00002000)  returns 0x00 (0000ms, 0597ms total)
T0D0C 000:710 JLINK_WriteReg(R2, 0x000000FF)  returns 0x00 (0000ms, 0597ms total)
T0D0C 000:710 JLINK_WriteReg(R3, 0x00000000)  returns 0x00 (0000ms, 0597ms total)
T0D0C 000:710 JLINK_WriteReg(R4, 0x00000000)  returns 0x00 (0000ms, 0597ms total)
T0D0C 000:710 JLINK_WriteReg(R5, 0x00000000)  returns 0x00 (0000ms, 0597ms total)
T0D0C 000:710 JLINK_WriteReg(R6, 0x00000000)  returns 0x00 (0000ms, 0597ms total)
T0D0C 000:710 JLINK_WriteReg(R7, 0x00000000)  returns 0x00 (0000ms, 0597ms total)
T0D0C 000:710 JLINK_WriteReg(R8, 0x00000000)  returns 0x00 (0000ms, 0597ms total)
T0D0C 000:710 JLINK_WriteReg(R9, 0x10000178)  returns 0x00 (0000ms, 0597ms total)
T0D0C 000:710 JLINK_WriteReg(R10, 0x00000000)  returns 0x00 (0000ms, 0597ms total)
T0D0C 000:710 JLINK_WriteReg(R11, 0x00000000)  returns 0x00 (0000ms, 0597ms total)
T0D0C 000:710 JLINK_WriteReg(R12, 0x00000000)  returns 0x00 (0000ms, 0597ms total)
T0D0C 000:710 JLINK_WriteReg(R13 (SP), 0x10004000)  returns 0x00 (0000ms, 0597ms total)
T0D0C 000:710 JLINK_WriteReg(R14, 0x10000001)  returns 0x00 (0000ms, 0597ms total)
T0D0C 000:710 JLINK_WriteReg(R15 (PC), 0x1000005E)  returns 0x00 (0000ms, 0597ms total)
T0D0C 000:710 JLINK_WriteReg(XPSR, 0x01000000)  returns 0x00 (0000ms, 0597ms total)
T0D0C 000:710 JLINK_WriteReg(MSP, 0x10004000)  returns 0x00 (0000ms, 0597ms total)
T0D0C 000:710 JLINK_WriteReg(PSP, 0x10004000)  returns 0x00 (0000ms, 0597ms total)
T0D0C 000:710 JLINK_WriteReg(CFBP, 0x00000000)  returns 0x00 (0000ms, 0597ms total)
T0D0C 000:710 JLINK_SetBPEx(Addr = 0x10000000, Type = 0xFFFFFFF2)  returns 0x00000005 (0000ms, 0597ms total)
T0D0C 000:710 JLINK_Go() -- CPU_WriteMem(4 bytes @ 0xE0002000) -- CPU_ReadMem(4 bytes @ 0xE0001000) (0002ms, 0599ms total)
T0D0C 000:712 JLINK_IsHalted()  returns FALSE (0000ms, 0599ms total)
T0D0C 000:713 JLINK_IsHalted()  returns FALSE (0000ms, 0599ms total)
T0D0C 000:714 JLINK_IsHalted()  returns FALSE (0000ms, 0599ms total)
T0D0C 000:715 JLINK_IsHalted()  returns FALSE (0000ms, 0599ms total)
T0D0C 000:716 JLINK_IsHalted()  returns FALSE (0000ms, 0599ms total)
T0D0C 000:717 JLINK_IsHalted()  returns FALSE (0000ms, 0599ms total)
T0D0C 000:733 JLINK_IsHalted()  returns TRUE (0002ms, 0601ms total)
T0D0C 000:735 JLINK_ReadReg(R15 (PC))  returns 0x10000000 (0000ms, 0599ms total)
T0D0C 000:735 JLINK_ClrBPEx(BPHandle = 0x00000005)  returns 0x00 (0000ms, 0599ms total)
T0D0C 000:735 JLINK_ReadReg(R0)  returns 0x00000000 (0000ms, 0599ms total)
T0D0C 000:736 JLINK_WriteReg(R0, 0x00004000)  returns 0x00 (0000ms, 0599ms total)
T0D0C 000:736 JLINK_WriteReg(R1, 0x00002000)  returns 0x00 (0000ms, 0599ms total)
T0D0C 000:736 JLINK_WriteReg(R2, 0x000000FF)  returns 0x00 (0000ms, 0599ms total)
T0D0C 000:736 JLINK_WriteReg(R3, 0x00000000)  returns 0x00 (0000ms, 0599ms total)
T0D0C 000:736 JLINK_WriteReg(R4, 0x00000000)  returns 0x00 (0000ms, 0599ms total)
T0D0C 000:736 JLINK_WriteReg(R5, 0x00000000)  returns 0x00 (0000ms, 0599ms total)
T0D0C 000:736 JLINK_WriteReg(R6, 0x00000000)  returns 0x00 (0000ms, 0599ms total)
T0D0C 000:736 JLINK_WriteReg(R7, 0x00000000)  returns 0x00 (0000ms, 0599ms total)
T0D0C 000:736 JLINK_WriteReg(R8, 0x00000000)  returns 0x00 (0000ms, 0599ms total)
T0D0C 000:736 JLINK_WriteReg(R9, 0x10000178)  returns 0x00 (0000ms, 0599ms total)
T0D0C 000:736 JLINK_WriteReg(R10, 0x00000000)  returns 0x00 (0000ms, 0599ms total)
T0D0C 000:736 JLINK_WriteReg(R11, 0x00000000)  returns 0x00 (0000ms, 0599ms total)
T0D0C 000:736 JLINK_WriteReg(R12, 0x00000000)  returns 0x00 (0000ms, 0599ms total)
T0D0C 000:736 JLINK_WriteReg(R13 (SP), 0x10004000)  returns 0x00 (0000ms, 0599ms total)
T0D0C 000:736 JLINK_WriteReg(R14, 0x10000001)  returns 0x00 (0000ms, 0599ms total)
T0D0C 000:736 JLINK_WriteReg(R15 (PC), 0x10000020)  returns 0x00 (0000ms, 0599ms total)
T0D0C 000:736 JLINK_WriteReg(XPSR, 0x01000000)  returns 0x00 (0000ms, 0599ms total)
T0D0C 000:736 JLINK_WriteReg(MSP, 0x10004000)  returns 0x00 (0000ms, 0599ms total)
T0D0C 000:736 JLINK_WriteReg(PSP, 0x10004000)  returns 0x00 (0000ms, 0599ms total)
T0D0C 000:736 JLINK_WriteReg(CFBP, 0x00000000)  returns 0x00 (0000ms, 0599ms total)
T0D0C 000:736 JLINK_SetBPEx(Addr = 0x10000000, Type = 0xFFFFFFF2)  returns 0x00000006 (0000ms, 0599ms total)
T0D0C 000:736 JLINK_Go() -- CPU_WriteMem(4 bytes @ 0xE0002000) -- CPU_ReadMem(4 bytes @ 0xE0001000) (0002ms, 0601ms total)
T0D0C 000:738 JLINK_IsHalted()  returns TRUE (0003ms, 0604ms total)
T0D0C 000:741 JLINK_ReadReg(R15 (PC))  returns 0x10000000 (0000ms, 0601ms total)
T0D0C 000:741 JLINK_ClrBPEx(BPHandle = 0x00000006)  returns 0x00 (0000ms, 0601ms total)
T0D0C 000:741 JLINK_ReadReg(R0)  returns 0x00000001 (0000ms, 0601ms total)
T0D0C 000:741 JLINK_WriteReg(R0, 0x00004000)  returns 0x00 (0000ms, 0601ms total)
T0D0C 000:741 JLINK_WriteReg(R1, 0x00002000)  returns 0x00 (0000ms, 0601ms total)
T0D0C 000:741 JLINK_WriteReg(R2, 0x000000FF)  returns 0x00 (0000ms, 0601ms total)
T0D0C 000:741 JLINK_WriteReg(R3, 0x00000000)  returns 0x00 (0000ms, 0601ms total)
T0D0C 000:741 JLINK_WriteReg(R4, 0x00000000)  returns 0x00 (0000ms, 0601ms total)
T0D0C 000:741 JLINK_WriteReg(R5, 0x00000000)  returns 0x00 (0000ms, 0601ms total)
T0D0C 000:741 JLINK_WriteReg(R6, 0x00000000)  returns 0x00 (0000ms, 0601ms total)
T0D0C 000:741 JLINK_WriteReg(R7, 0x00000000)  returns 0x00 (0000ms, 0601ms total)
T0D0C 000:741 JLINK_WriteReg(R8, 0x00000000)  returns 0x00 (0000ms, 0601ms total)
T0D0C 000:741 JLINK_WriteReg(R9, 0x10000178)  returns 0x00 (0000ms, 0601ms total)
T0D0C 000:741 JLINK_WriteReg(R10, 0x00000000)  returns 0x00 (0000ms, 0601ms total)
T0D0C 000:741 JLINK_WriteReg(R11, 0x00000000)  returns 0x00 (0000ms, 0601ms total)
T0D0C 000:741 JLINK_WriteReg(R12, 0x00000000)  returns 0x00 (0000ms, 0601ms total)
T0D0C 000:741 JLINK_WriteReg(R13 (SP), 0x10004000)  returns 0x00 (0000ms, 0601ms total)
T0D0C 000:741 JLINK_WriteReg(R14, 0x10000001)  returns 0x00 (0000ms, 0601ms total)
T0D0C 000:741 JLINK_WriteReg(R15 (PC), 0x1000005E)  returns 0x00 (0000ms, 0601ms total)
T0D0C 000:741 JLINK_WriteReg(XPSR, 0x01000000)  returns 0x00 (0000ms, 0601ms total)
T0D0C 000:741 JLINK_WriteReg(MSP, 0x10004000)  returns 0x00 (0000ms, 0601ms total)
T0D0C 000:741 JLINK_WriteReg(PSP, 0x10004000)  returns 0x00 (0000ms, 0601ms total)
T0D0C 000:741 JLINK_WriteReg(CFBP, 0x00000000)  returns 0x00 (0000ms, 0601ms total)
T0D0C 000:741 JLINK_SetBPEx(Addr = 0x10000000, Type = 0xFFFFFFF2)  returns 0x00000007 (0000ms, 0601ms total)
T0D0C 000:741 JLINK_Go() -- CPU_WriteMem(4 bytes @ 0xE0002000) -- CPU_ReadMem(4 bytes @ 0xE0001000) (0002ms, 0603ms total)
T0D0C 000:743 JLINK_IsHalted()  returns FALSE (0000ms, 0603ms total)
T0D0C 000:744 JLINK_IsHalted()  returns FALSE (0000ms, 0603ms total)
T0D0C 000:745 JLINK_IsHalted()  returns FALSE (0000ms, 0603ms total)
T0D0C 000:746 JLINK_IsHalted()  returns FALSE (0000ms, 0603ms total)
T0D0C 000:747 JLINK_IsHalted()  returns FALSE (0000ms, 0603ms total)
T0D0C 000:748 JLINK_IsHalted()  returns FALSE (0000ms, 0603ms total)
T0D0C 000:749 JLINK_IsHalted()  returns FALSE (0000ms, 0603ms total)
T0D0C 000:750 JLINK_IsHalted()  returns FALSE (0000ms, 0603ms total)
T0D0C 000:751 JLINK_IsHalted()  returns FALSE (0000ms, 0603ms total)
T0D0C 000:752 JLINK_IsHalted()  returns FALSE (0000ms, 0603ms total)
T0D0C 000:753 JLINK_IsHalted()  returns FALSE (0000ms, 0603ms total)
T0D0C 000:754 JLINK_IsHalted()  returns FALSE (0000ms, 0603ms total)
T0D0C 000:755 JLINK_IsHalted()  returns FALSE (0000ms, 0603ms total)
T0D0C 000:756 JLINK_IsHalted()  returns FALSE (0000ms, 0603ms total)
T0D0C 000:757 JLINK_IsHalted()  returns FALSE (0000ms, 0603ms total)
T0D0C 000:758 JLINK_IsHalted()  returns FALSE (0000ms, 0603ms total)
T0D0C 000:759 JLINK_IsHalted()  returns TRUE (0002ms, 0605ms total)
T0D0C 000:761 JLINK_ReadReg(R15 (PC))  returns 0x10000000 (0000ms, 0603ms total)
T0D0C 000:761 JLINK_ClrBPEx(BPHandle = 0x00000007)  returns 0x00 (0000ms, 0603ms total)
T0D0C 000:761 JLINK_ReadReg(R0)  returns 0x00000000 (0000ms, 0603ms total)
T0D0C 000:762 JLINK_WriteReg(R0, 0x00006000)  returns 0x00 (0000ms, 0603ms total)
T0D0C 000:762 JLINK_WriteReg(R1, 0x00002000)  returns 0x00 (0000ms, 0603ms total)
T0D0C 000:762 JLINK_WriteReg(R2, 0x000000FF)  returns 0x00 (0000ms, 0603ms total)
T0D0C 000:762 JLINK_WriteReg(R3, 0x00000000)  returns 0x00 (0000ms, 0603ms total)
T0D0C 000:762 JLINK_WriteReg(R4, 0x00000000)  returns 0x00 (0000ms, 0603ms total)
T0D0C 000:762 JLINK_WriteReg(R5, 0x00000000)  returns 0x00 (0000ms, 0603ms total)
T0D0C 000:762 JLINK_WriteReg(R6, 0x00000000)  returns 0x00 (0000ms, 0603ms total)
T0D0C 000:762 JLINK_WriteReg(R7, 0x00000000)  returns 0x00 (0000ms, 0603ms total)
T0D0C 000:762 JLINK_WriteReg(R8, 0x00000000)  returns 0x00 (0000ms, 0603ms total)
T0D0C 000:762 JLINK_WriteReg(R9, 0x10000178)  returns 0x00 (0000ms, 0603ms total)
T0D0C 000:762 JLINK_WriteReg(R10, 0x00000000)  returns 0x00 (0000ms, 0603ms total)
T0D0C 000:762 JLINK_WriteReg(R11, 0x00000000)  returns 0x00 (0000ms, 0603ms total)
T0D0C 000:762 JLINK_WriteReg(R12, 0x00000000)  returns 0x00 (0000ms, 0603ms total)
T0D0C 000:762 JLINK_WriteReg(R13 (SP), 0x10004000)  returns 0x00 (0000ms, 0603ms total)
T0D0C 000:762 JLINK_WriteReg(R14, 0x10000001)  returns 0x00 (0000ms, 0603ms total)
T0D0C 000:762 JLINK_WriteReg(R15 (PC), 0x10000020)  returns 0x00 (0000ms, 0603ms total)
T0D0C 000:762 JLINK_WriteReg(XPSR, 0x01000000)  returns 0x00 (0000ms, 0603ms total)
T0D0C 000:762 JLINK_WriteReg(MSP, 0x10004000)  returns 0x00 (0000ms, 0603ms total)
T0D0C 000:762 JLINK_WriteReg(PSP, 0x10004000)  returns 0x00 (0000ms, 0603ms total)
T0D0C 000:762 JLINK_WriteReg(CFBP, 0x00000000)  returns 0x00 (0000ms, 0603ms total)
T0D0C 000:762 JLINK_SetBPEx(Addr = 0x10000000, Type = 0xFFFFFFF2)  returns 0x00000008 (0000ms, 0603ms total)
T0D0C 000:762 JLINK_Go() -- CPU_WriteMem(4 bytes @ 0xE0002000) -- CPU_ReadMem(4 bytes @ 0xE0001000) (0002ms, 0605ms total)
T0D0C 000:764 JLINK_IsHalted()  returns TRUE (0003ms, 0608ms total)
T0D0C 000:767 JLINK_ReadReg(R15 (PC))  returns 0x10000000 (0000ms, 0605ms total)
T0D0C 000:767 JLINK_ClrBPEx(BPHandle = 0x00000008)  returns 0x00 (0000ms, 0605ms total)
T0D0C 000:767 JLINK_ReadReg(R0)  returns 0x00000001 (0000ms, 0605ms total)
T0D0C 000:767 JLINK_WriteReg(R0, 0x00006000)  returns 0x00 (0000ms, 0605ms total)
T0D0C 000:767 JLINK_WriteReg(R1, 0x00002000)  returns 0x00 (0000ms, 0605ms total)
T0D0C 000:767 JLINK_WriteReg(R2, 0x000000FF)  returns 0x00 (0000ms, 0605ms total)
T0D0C 000:767 JLINK_WriteReg(R3, 0x00000000)  returns 0x00 (0000ms, 0605ms total)
T0D0C 000:767 JLINK_WriteReg(R4, 0x00000000)  returns 0x00 (0000ms, 0605ms total)
T0D0C 000:767 JLINK_WriteReg(R5, 0x00000000)  returns 0x00 (0000ms, 0605ms total)
T0D0C 000:767 JLINK_WriteReg(R6, 0x00000000)  returns 0x00 (0000ms, 0605ms total)
T0D0C 000:767 JLINK_WriteReg(R7, 0x00000000)  returns 0x00 (0000ms, 0605ms total)
T0D0C 000:767 JLINK_WriteReg(R8, 0x00000000)  returns 0x00 (0000ms, 0605ms total)
T0D0C 000:767 JLINK_WriteReg(R9, 0x10000178)  returns 0x00 (0000ms, 0605ms total)
T0D0C 000:767 JLINK_WriteReg(R10, 0x00000000)  returns 0x00 (0000ms, 0605ms total)
T0D0C 000:767 JLINK_WriteReg(R11, 0x00000000)  returns 0x00 (0000ms, 0605ms total)
T0D0C 000:767 JLINK_WriteReg(R12, 0x00000000)  returns 0x00 (0000ms, 0605ms total)
T0D0C 000:767 JLINK_WriteReg(R13 (SP), 0x10004000)  returns 0x00 (0000ms, 0605ms total)
T0D0C 000:767 JLINK_WriteReg(R14, 0x10000001)  returns 0x00 (0000ms, 0605ms total)
T0D0C 000:767 JLINK_WriteReg(R15 (PC), 0x1000005E)  returns 0x00 (0000ms, 0605ms total)
T0D0C 000:767 JLINK_WriteReg(XPSR, 0x01000000)  returns 0x00 (0000ms, 0605ms total)
T0D0C 000:767 JLINK_WriteReg(MSP, 0x10004000)  returns 0x00 (0000ms, 0605ms total)
T0D0C 000:767 JLINK_WriteReg(PSP, 0x10004000)  returns 0x00 (0000ms, 0605ms total)
T0D0C 000:767 JLINK_WriteReg(CFBP, 0x00000000)  returns 0x00 (0000ms, 0605ms total)
T0D0C 000:767 JLINK_SetBPEx(Addr = 0x10000000, Type = 0xFFFFFFF2)  returns 0x00000009 (0000ms, 0605ms total)
T0D0C 000:767 JLINK_Go() -- CPU_WriteMem(4 bytes @ 0xE0002000) -- CPU_ReadMem(4 bytes @ 0xE0001000) (0002ms, 0607ms total)
T0D0C 000:769 JLINK_IsHalted()  returns FALSE (0000ms, 0607ms total)
T0D0C 000:772 JLINK_IsHalted()  returns FALSE (0000ms, 0607ms total)
T0D0C 000:773 JLINK_IsHalted()  returns FALSE (0000ms, 0607ms total)
T0D0C 000:774 JLINK_IsHalted()  returns FALSE (0000ms, 0607ms total)
T0D0C 000:775 JLINK_IsHalted()  returns FALSE (0000ms, 0607ms total)
T0D0C 000:776 JLINK_IsHalted()  returns FALSE (0000ms, 0607ms total)
T0D0C 000:779 JLINK_IsHalted()  returns FALSE (0000ms, 0607ms total)
T0D0C 000:780 JLINK_IsHalted()  returns FALSE (0000ms, 0607ms total)
T0D0C 000:781 JLINK_IsHalted()  returns FALSE (0000ms, 0607ms total)
T0D0C 000:782 JLINK_IsHalted()  returns FALSE (0000ms, 0607ms total)
T0D0C 000:783 JLINK_IsHalted()  returns FALSE (0000ms, 0607ms total)
T0D0C 000:784 JLINK_IsHalted()  returns FALSE (0000ms, 0607ms total)
T0D0C 000:785 JLINK_IsHalted()  returns TRUE (0003ms, 0610ms total)
T0D0C 000:788 JLINK_ReadReg(R15 (PC))  returns 0x10000000 (0000ms, 0607ms total)
T0D0C 000:788 JLINK_ClrBPEx(BPHandle = 0x00000009)  returns 0x00 (0000ms, 0607ms total)
T0D0C 000:788 JLINK_ReadReg(R0)  returns 0x00000000 (0000ms, 0607ms total)
T0D0C 000:789 JLINK_WriteReg(R0, 0x00008000)  returns 0x00 (0000ms, 0607ms total)
T0D0C 000:789 JLINK_WriteReg(R1, 0x00002000)  returns 0x00 (0000ms, 0607ms total)
T0D0C 000:789 JLINK_WriteReg(R2, 0x000000FF)  returns 0x00 (0000ms, 0607ms total)
T0D0C 000:789 JLINK_WriteReg(R3, 0x00000000)  returns 0x00 (0000ms, 0607ms total)
T0D0C 000:789 JLINK_WriteReg(R4, 0x00000000)  returns 0x00 (0000ms, 0607ms total)
T0D0C 000:789 JLINK_WriteReg(R5, 0x00000000)  returns 0x00 (0000ms, 0607ms total)
T0D0C 000:789 JLINK_WriteReg(R6, 0x00000000)  returns 0x00 (0000ms, 0607ms total)
T0D0C 000:789 JLINK_WriteReg(R7, 0x00000000)  returns 0x00 (0000ms, 0607ms total)
T0D0C 000:789 JLINK_WriteReg(R8, 0x00000000)  returns 0x00 (0000ms, 0607ms total)
T0D0C 000:789 JLINK_WriteReg(R9, 0x10000178)  returns 0x00 (0000ms, 0607ms total)
T0D0C 000:789 JLINK_WriteReg(R10, 0x00000000)  returns 0x00 (0000ms, 0607ms total)
T0D0C 000:789 JLINK_WriteReg(R11, 0x00000000)  returns 0x00 (0000ms, 0607ms total)
T0D0C 000:789 JLINK_WriteReg(R12, 0x00000000)  returns 0x00 (0000ms, 0607ms total)
T0D0C 000:789 JLINK_WriteReg(R13 (SP), 0x10004000)  returns 0x00 (0000ms, 0607ms total)
T0D0C 000:789 JLINK_WriteReg(R14, 0x10000001)  returns 0x00 (0000ms, 0607ms total)
T0D0C 000:789 JLINK_WriteReg(R15 (PC), 0x10000020)  returns 0x00 (0000ms, 0607ms total)
T0D0C 000:789 JLINK_WriteReg(XPSR, 0x01000000)  returns 0x00 (0000ms, 0607ms total)
T0D0C 000:789 JLINK_WriteReg(MSP, 0x10004000)  returns 0x00 (0000ms, 0607ms total)
T0D0C 000:789 JLINK_WriteReg(PSP, 0x10004000)  returns 0x00 (0000ms, 0607ms total)
T0D0C 000:789 JLINK_WriteReg(CFBP, 0x00000000)  returns 0x00 (0000ms, 0607ms total)
T0D0C 000:789 JLINK_SetBPEx(Addr = 0x10000000, Type = 0xFFFFFFF2)  returns 0x0000000A (0000ms, 0607ms total)
T0D0C 000:789 JLINK_Go() -- CPU_WriteMem(4 bytes @ 0xE0002000) -- CPU_ReadMem(4 bytes @ 0xE0001000) (0003ms, 0610ms total)
T0D0C 000:792 JLINK_IsHalted()  returns TRUE (0003ms, 0613ms total)
T0D0C 000:796 JLINK_ReadReg(R15 (PC))  returns 0x10000000 (0000ms, 0610ms total)
T0D0C 000:796 JLINK_ClrBPEx(BPHandle = 0x0000000A)  returns 0x00 (0000ms, 0610ms total)
T0D0C 000:796 JLINK_ReadReg(R0)  returns 0x00000001 (0000ms, 0610ms total)
T0D0C 000:796 JLINK_WriteReg(R0, 0x00008000)  returns 0x00 (0000ms, 0610ms total)
T0D0C 000:796 JLINK_WriteReg(R1, 0x00002000)  returns 0x00 (0000ms, 0610ms total)
T0D0C 000:796 JLINK_WriteReg(R2, 0x000000FF)  returns 0x00 (0000ms, 0610ms total)
T0D0C 000:796 JLINK_WriteReg(R3, 0x00000000)  returns 0x00 (0000ms, 0610ms total)
T0D0C 000:796 JLINK_WriteReg(R4, 0x00000000)  returns 0x00 (0000ms, 0610ms total)
T0D0C 000:796 JLINK_WriteReg(R5, 0x00000000)  returns 0x00 (0000ms, 0610ms total)
T0D0C 000:796 JLINK_WriteReg(R6, 0x00000000)  returns 0x00 (0000ms, 0610ms total)
T0D0C 000:796 JLINK_WriteReg(R7, 0x00000000)  returns 0x00 (0000ms, 0610ms total)
T0D0C 000:796 JLINK_WriteReg(R8, 0x00000000)  returns 0x00 (0000ms, 0610ms total)
T0D0C 000:796 JLINK_WriteReg(R9, 0x10000178)  returns 0x00 (0000ms, 0610ms total)
T0D0C 000:796 JLINK_WriteReg(R10, 0x00000000)  returns 0x00 (0000ms, 0610ms total)
T0D0C 000:796 JLINK_WriteReg(R11, 0x00000000)  returns 0x00 (0000ms, 0610ms total)
T0D0C 000:796 JLINK_WriteReg(R12, 0x00000000)  returns 0x00 (0000ms, 0610ms total)
T0D0C 000:796 JLINK_WriteReg(R13 (SP), 0x10004000)  returns 0x00 (0000ms, 0610ms total)
T0D0C 000:796 JLINK_WriteReg(R14, 0x10000001)  returns 0x00 (0000ms, 0610ms total)
T0D0C 000:796 JLINK_WriteReg(R15 (PC), 0x1000005E)  returns 0x00 (0000ms, 0610ms total)
T0D0C 000:796 JLINK_WriteReg(XPSR, 0x01000000)  returns 0x00 (0000ms, 0610ms total)
T0D0C 000:796 JLINK_WriteReg(MSP, 0x10004000)  returns 0x00 (0000ms, 0610ms total)
T0D0C 000:796 JLINK_WriteReg(PSP, 0x10004000)  returns 0x00 (0000ms, 0610ms total)
T0D0C 000:796 JLINK_WriteReg(CFBP, 0x00000000)  returns 0x00 (0000ms, 0610ms total)
T0D0C 000:796 JLINK_SetBPEx(Addr = 0x10000000, Type = 0xFFFFFFF2)  returns 0x0000000B (0000ms, 0610ms total)
T0D0C 000:796 JLINK_Go() -- CPU_WriteMem(4 bytes @ 0xE0002000) -- CPU_ReadMem(4 bytes @ 0xE0001000) (0003ms, 0613ms total)
T0D0C 000:799 JLINK_IsHalted()  returns FALSE (0001ms, 0614ms total)
T0D0C 000:801 JLINK_IsHalted()  returns FALSE (0000ms, 0613ms total)
T0D0C 000:802 JLINK_IsHalted()  returns FALSE (0000ms, 0613ms total)
T0D0C 000:803 JLINK_IsHalted()  returns FALSE (0000ms, 0613ms total)
T0D0C 000:804 JLINK_IsHalted()  returns FALSE (0000ms, 0613ms total)
T0D0C 000:805 JLINK_IsHalted()  returns FALSE (0000ms, 0613ms total)
T0D0C 000:806 JLINK_IsHalted()  returns FALSE (0000ms, 0613ms total)
T0D0C 000:807 JLINK_IsHalted()  returns FALSE (0000ms, 0613ms total)
T0D0C 000:808 JLINK_IsHalted()  returns FALSE (0000ms, 0613ms total)
T0D0C 000:809 JLINK_IsHalted()  returns FALSE (0000ms, 0613ms total)
T0D0C 000:810 JLINK_IsHalted()  returns FALSE (0000ms, 0613ms total)
T0D0C 000:811 JLINK_IsHalted()  returns FALSE (0000ms, 0613ms total)
T0D0C 000:812 JLINK_IsHalted()  returns FALSE (0000ms, 0613ms total)
T0D0C 000:813 JLINK_IsHalted()  returns FALSE (0000ms, 0613ms total)
T0D0C 000:814 JLINK_IsHalted()  returns FALSE (0000ms, 0613ms total)
T0D0C 000:815 JLINK_IsHalted()  returns TRUE (0003ms, 0616ms total)
T0D0C 000:818 JLINK_ReadReg(R15 (PC))  returns 0x10000000 (0000ms, 0613ms total)
T0D0C 000:818 JLINK_ClrBPEx(BPHandle = 0x0000000B)  returns 0x00 (0000ms, 0613ms total)
T0D0C 000:818 JLINK_ReadReg(R0)  returns 0x00000000 (0000ms, 0613ms total)
T0D0C 000:818 JLINK_WriteReg(R0, 0x0000A000)  returns 0x00 (0000ms, 0613ms total)
T0D0C 000:818 JLINK_WriteReg(R1, 0x00002000)  returns 0x00 (0000ms, 0613ms total)
T0D0C 000:818 JLINK_WriteReg(R2, 0x000000FF)  returns 0x00 (0000ms, 0613ms total)
T0D0C 000:818 JLINK_WriteReg(R3, 0x00000000)  returns 0x00 (0000ms, 0613ms total)
T0D0C 000:818 JLINK_WriteReg(R4, 0x00000000)  returns 0x00 (0000ms, 0613ms total)
T0D0C 000:818 JLINK_WriteReg(R5, 0x00000000)  returns 0x00 (0001ms, 0614ms total)
T0D0C 000:819 JLINK_WriteReg(R6, 0x00000000)  returns 0x00 (0000ms, 0614ms total)
T0D0C 000:819 JLINK_WriteReg(R7, 0x00000000)  returns 0x00 (0000ms, 0614ms total)
T0D0C 000:819 JLINK_WriteReg(R8, 0x00000000)  returns 0x00 (0000ms, 0614ms total)
T0D0C 000:819 JLINK_WriteReg(R9, 0x10000178)  returns 0x00 (0000ms, 0614ms total)
T0D0C 000:819 JLINK_WriteReg(R10, 0x00000000)  returns 0x00 (0000ms, 0614ms total)
T0D0C 000:819 JLINK_WriteReg(R11, 0x00000000)  returns 0x00 (0000ms, 0614ms total)
T0D0C 000:819 JLINK_WriteReg(R12, 0x00000000)  returns 0x00 (0000ms, 0614ms total)
T0D0C 000:819 JLINK_WriteReg(R13 (SP), 0x10004000)  returns 0x00 (0000ms, 0614ms total)
T0D0C 000:819 JLINK_WriteReg(R14, 0x10000001)  returns 0x00 (0000ms, 0614ms total)
T0D0C 000:819 JLINK_WriteReg(R15 (PC), 0x10000020)  returns 0x00 (0000ms, 0614ms total)
T0D0C 000:819 JLINK_WriteReg(XPSR, 0x01000000)  returns 0x00 (0000ms, 0614ms total)
T0D0C 000:819 JLINK_WriteReg(MSP, 0x10004000)  returns 0x00 (0000ms, 0614ms total)
T0D0C 000:819 JLINK_WriteReg(PSP, 0x10004000)  returns 0x00 (0000ms, 0614ms total)
T0D0C 000:819 JLINK_WriteReg(CFBP, 0x00000000)  returns 0x00 (0000ms, 0614ms total)
T0D0C 000:819 JLINK_SetBPEx(Addr = 0x10000000, Type = 0xFFFFFFF2)  returns 0x0000000C (0000ms, 0614ms total)
T0D0C 000:819 JLINK_Go() -- CPU_WriteMem(4 bytes @ 0xE0002000) -- CPU_ReadMem(4 bytes @ 0xE0001000) (0003ms, 0617ms total)
T0D0C 000:822 JLINK_IsHalted()  returns TRUE (0003ms, 0620ms total)
T0D0C 000:825 JLINK_ReadReg(R15 (PC))  returns 0x10000000 (0000ms, 0617ms total)
T0D0C 000:825 JLINK_ClrBPEx(BPHandle = 0x0000000C)  returns 0x00 (0000ms, 0617ms total)
T0D0C 000:825 JLINK_ReadReg(R0)  returns 0x00000001 (0000ms, 0617ms total)
T0D0C 000:825 JLINK_WriteReg(R0, 0x0000A000)  returns 0x00 (0000ms, 0617ms total)
T0D0C 000:825 JLINK_WriteReg(R1, 0x00002000)  returns 0x00 (0000ms, 0617ms total)
T0D0C 000:825 JLINK_WriteReg(R2, 0x000000FF)  returns 0x00 (0000ms, 0617ms total)
T0D0C 000:825 JLINK_WriteReg(R3, 0x00000000)  returns 0x00 (0000ms, 0617ms total)
T0D0C 000:825 JLINK_WriteReg(R4, 0x00000000)  returns 0x00 (0000ms, 0617ms total)
T0D0C 000:825 JLINK_WriteReg(R5, 0x00000000)  returns 0x00 (0000ms, 0617ms total)
T0D0C 000:825 JLINK_WriteReg(R6, 0x00000000)  returns 0x00 (0000ms, 0617ms total)
T0D0C 000:825 JLINK_WriteReg(R7, 0x00000000)  returns 0x00 (0000ms, 0617ms total)
T0D0C 000:825 JLINK_WriteReg(R8, 0x00000000)  returns 0x00 (0000ms, 0617ms total)
T0D0C 000:825 JLINK_WriteReg(R9, 0x10000178)  returns 0x00 (0000ms, 0617ms total)
T0D0C 000:825 JLINK_WriteReg(R10, 0x00000000)  returns 0x00 (0000ms, 0617ms total)
T0D0C 000:825 JLINK_WriteReg(R11, 0x00000000)  returns 0x00 (0000ms, 0617ms total)
T0D0C 000:825 JLINK_WriteReg(R12, 0x00000000)  returns 0x00 (0000ms, 0617ms total)
T0D0C 000:825 JLINK_WriteReg(R13 (SP), 0x10004000)  returns 0x00 (0000ms, 0617ms total)
T0D0C 000:825 JLINK_WriteReg(R14, 0x10000001)  returns 0x00 (0000ms, 0617ms total)
T0D0C 000:825 JLINK_WriteReg(R15 (PC), 0x1000005E)  returns 0x00 (0000ms, 0617ms total)
T0D0C 000:825 JLINK_WriteReg(XPSR, 0x01000000)  returns 0x00 (0000ms, 0617ms total)
T0D0C 000:825 JLINK_WriteReg(MSP, 0x10004000)  returns 0x00 (0000ms, 0617ms total)
T0D0C 000:825 JLINK_WriteReg(PSP, 0x10004000)  returns 0x00 (0000ms, 0617ms total)
T0D0C 000:825 JLINK_WriteReg(CFBP, 0x00000000)  returns 0x00 (0000ms, 0617ms total)
T0D0C 000:825 JLINK_SetBPEx(Addr = 0x10000000, Type = 0xFFFFFFF2)  returns 0x0000000D (0000ms, 0617ms total)
T0D0C 000:825 JLINK_Go() -- CPU_WriteMem(4 bytes @ 0xE0002000) -- CPU_ReadMem(4 bytes @ 0xE0001000) (0003ms, 0620ms total)
T0D0C 000:828 JLINK_IsHalted()  returns FALSE (0000ms, 0620ms total)
T0D0C 000:866 JLINK_IsHalted()  returns TRUE (0003ms, 0623ms total)
T0D0C 000:869 JLINK_ReadReg(R15 (PC))  returns 0x10000000 (0000ms, 0620ms total)
T0D0C 000:869 JLINK_ClrBPEx(BPHandle = 0x0000000D)  returns 0x00 (0000ms, 0620ms total)
T0D0C 000:869 JLINK_ReadReg(R0)  returns 0x00000000 (0000ms, 0620ms total)
T0D0C 000:869 JLINK_WriteReg(R0, 0x0000C000)  returns 0x00 (0000ms, 0620ms total)
T0D0C 000:869 JLINK_WriteReg(R1, 0x00002000)  returns 0x00 (0000ms, 0620ms total)
T0D0C 000:869 JLINK_WriteReg(R2, 0x000000FF)  returns 0x00 (0000ms, 0620ms total)
T0D0C 000:869 JLINK_WriteReg(R3, 0x00000000)  returns 0x00 (0000ms, 0620ms total)
T0D0C 000:869 JLINK_WriteReg(R4, 0x00000000)  returns 0x00 (0000ms, 0620ms total)
T0D0C 000:869 JLINK_WriteReg(R5, 0x00000000)  returns 0x00 (0000ms, 0620ms total)
T0D0C 000:869 JLINK_WriteReg(R6, 0x00000000)  returns 0x00 (0000ms, 0620ms total)
T0D0C 000:869 JLINK_WriteReg(R7, 0x00000000)  returns 0x00 (0000ms, 0620ms total)
T0D0C 000:869 JLINK_WriteReg(R8, 0x00000000)  returns 0x00 (0000ms, 0620ms total)
T0D0C 000:869 JLINK_WriteReg(R9, 0x10000178)  returns 0x00 (0000ms, 0620ms total)
T0D0C 000:869 JLINK_WriteReg(R10, 0x00000000)  returns 0x00 (0000ms, 0620ms total)
T0D0C 000:869 JLINK_WriteReg(R11, 0x00000000)  returns 0x00 (0000ms, 0620ms total)
T0D0C 000:869 JLINK_WriteReg(R12, 0x00000000)  returns 0x00 (0000ms, 0620ms total)
T0D0C 000:869 JLINK_WriteReg(R13 (SP), 0x10004000)  returns 0x00 (0000ms, 0620ms total)
T0D0C 000:869 JLINK_WriteReg(R14, 0x10000001)  returns 0x00 (0000ms, 0620ms total)
T0D0C 000:869 JLINK_WriteReg(R15 (PC), 0x10000020)  returns 0x00 (0000ms, 0620ms total)
T0D0C 000:869 JLINK_WriteReg(XPSR, 0x01000000)  returns 0x00 (0000ms, 0620ms total)
T0D0C 000:869 JLINK_WriteReg(MSP, 0x10004000)  returns 0x00 (0000ms, 0620ms total)
T0D0C 000:869 JLINK_WriteReg(PSP, 0x10004000)  returns 0x00 (0000ms, 0620ms total)
T0D0C 000:869 JLINK_WriteReg(CFBP, 0x00000000)  returns 0x00 (0000ms, 0620ms total)
T0D0C 000:869 JLINK_SetBPEx(Addr = 0x10000000, Type = 0xFFFFFFF2)  returns 0x0000000E (0000ms, 0620ms total)
T0D0C 000:869 JLINK_Go() -- CPU_WriteMem(4 bytes @ 0xE0002000) -- CPU_ReadMem(4 bytes @ 0xE0001000) (0003ms, 0623ms total)
T0D0C 000:872 JLINK_IsHalted()  returns TRUE (0003ms, 0626ms total)
T0D0C 000:875 JLINK_ReadReg(R15 (PC))  returns 0x10000000 (0000ms, 0623ms total)
T0D0C 000:875 JLINK_ClrBPEx(BPHandle = 0x0000000E)  returns 0x00 (0000ms, 0623ms total)
T0D0C 000:875 JLINK_ReadReg(R0)  returns 0x00000001 (0000ms, 0623ms total)
T0D0C 000:875 JLINK_WriteReg(R0, 0x0000C000)  returns 0x00 (0000ms, 0623ms total)
T0D0C 000:875 JLINK_WriteReg(R1, 0x00002000)  returns 0x00 (0000ms, 0623ms total)
T0D0C 000:875 JLINK_WriteReg(R2, 0x000000FF)  returns 0x00 (0000ms, 0623ms total)
T0D0C 000:875 JLINK_WriteReg(R3, 0x00000000)  returns 0x00 (0000ms, 0623ms total)
T0D0C 000:875 JLINK_WriteReg(R4, 0x00000000)  returns 0x00 (0000ms, 0623ms total)
T0D0C 000:875 JLINK_WriteReg(R5, 0x00000000)  returns 0x00 (0000ms, 0623ms total)
T0D0C 000:875 JLINK_WriteReg(R6, 0x00000000)  returns 0x00 (0000ms, 0623ms total)
T0D0C 000:875 JLINK_WriteReg(R7, 0x00000000)  returns 0x00 (0000ms, 0623ms total)
T0D0C 000:875 JLINK_WriteReg(R8, 0x00000000)  returns 0x00 (0000ms, 0623ms total)
T0D0C 000:875 JLINK_WriteReg(R9, 0x10000178)  returns 0x00 (0000ms, 0623ms total)
T0D0C 000:875 JLINK_WriteReg(R10, 0x00000000)  returns 0x00 (0000ms, 0623ms total)
T0D0C 000:875 JLINK_WriteReg(R11, 0x00000000)  returns 0x00 (0000ms, 0623ms total)
T0D0C 000:875 JLINK_WriteReg(R12, 0x00000000)  returns 0x00 (0000ms, 0623ms total)
T0D0C 000:875 JLINK_WriteReg(R13 (SP), 0x10004000)  returns 0x00 (0000ms, 0623ms total)
T0D0C 000:875 JLINK_WriteReg(R14, 0x10000001)  returns 0x00 (0000ms, 0623ms total)
T0D0C 000:875 JLINK_WriteReg(R15 (PC), 0x1000005E)  returns 0x00 (0000ms, 0623ms total)
T0D0C 000:875 JLINK_WriteReg(XPSR, 0x01000000)  returns 0x00 (0000ms, 0623ms total)
T0D0C 000:875 JLINK_WriteReg(MSP, 0x10004000)  returns 0x00 (0000ms, 0623ms total)
T0D0C 000:875 JLINK_WriteReg(PSP, 0x10004000)  returns 0x00 (0000ms, 0623ms total)
T0D0C 000:875 JLINK_WriteReg(CFBP, 0x00000000)  returns 0x00 (0001ms, 0624ms total)
T0D0C 000:876 JLINK_SetBPEx(Addr = 0x10000000, Type = 0xFFFFFFF2)  returns 0x0000000F (0000ms, 0624ms total)
T0D0C 000:876 JLINK_Go() -- CPU_WriteMem(4 bytes @ 0xE0002000) -- CPU_ReadMem(4 bytes @ 0xE0001000) (0002ms, 0626ms total)
T0D0C 000:878 JLINK_IsHalted()  returns FALSE (0000ms, 0626ms total)
T0D0C 000:879 JLINK_IsHalted()  returns FALSE (0000ms, 0626ms total)
T0D0C 000:880 JLINK_IsHalted()  returns FALSE (0000ms, 0626ms total)
T0D0C 000:881 JLINK_IsHalted()  returns FALSE (0000ms, 0626ms total)
T0D0C 000:882 JLINK_IsHalted()  returns FALSE (0000ms, 0626ms total)
T0D0C 000:883 JLINK_IsHalted()  returns FALSE (0000ms, 0626ms total)
T0D0C 000:884 JLINK_IsHalted()  returns FALSE (0000ms, 0626ms total)
T0D0C 000:885 JLINK_IsHalted()  returns FALSE (0000ms, 0626ms total)
T0D0C 000:886 JLINK_IsHalted()  returns FALSE (0000ms, 0626ms total)
T0D0C 000:887 JLINK_IsHalted()  returns FALSE (0000ms, 0626ms total)
T0D0C 000:888 JLINK_IsHalted()  returns FALSE (0000ms, 0626ms total)
T0D0C 000:889 JLINK_IsHalted()  returns FALSE (0000ms, 0626ms total)
T0D0C 000:890 JLINK_IsHalted()  returns FALSE (0000ms, 0626ms total)
T0D0C 000:891 JLINK_IsHalted()  returns FALSE (0000ms, 0626ms total)
T0D0C 000:892 JLINK_IsHalted()  returns FALSE (0000ms, 0626ms total)
T0D0C 000:893 JLINK_IsHalted()  returns FALSE (0000ms, 0626ms total)
T0D0C 000:894 JLINK_IsHalted()  returns TRUE (0003ms, 0629ms total)
T0D0C 000:897 JLINK_ReadReg(R15 (PC))  returns 0x10000000 (0000ms, 0626ms total)
T0D0C 000:897 JLINK_ClrBPEx(BPHandle = 0x0000000F)  returns 0x00 (0000ms, 0626ms total)
T0D0C 000:897 JLINK_ReadReg(R0)  returns 0x00000000 (0000ms, 0626ms total)
T0D0C 000:897 JLINK_WriteReg(R0, 0x0000E000)  returns 0x00 (0000ms, 0626ms total)
T0D0C 000:897 JLINK_WriteReg(R1, 0x00002000)  returns 0x00 (0000ms, 0626ms total)
T0D0C 000:897 JLINK_WriteReg(R2, 0x000000FF)  returns 0x00 (0000ms, 0626ms total)
T0D0C 000:897 JLINK_WriteReg(R3, 0x00000000)  returns 0x00 (0000ms, 0626ms total)
T0D0C 000:897 JLINK_WriteReg(R4, 0x00000000)  returns 0x00 (0000ms, 0626ms total)
T0D0C 000:897 JLINK_WriteReg(R5, 0x00000000)  returns 0x00 (0000ms, 0626ms total)
T0D0C 000:897 JLINK_WriteReg(R6, 0x00000000)  returns 0x00 (0000ms, 0626ms total)
T0D0C 000:897 JLINK_WriteReg(R7, 0x00000000)  returns 0x00 (0000ms, 0626ms total)
T0D0C 000:897 JLINK_WriteReg(R8, 0x00000000)  returns 0x00 (0000ms, 0626ms total)
T0D0C 000:897 JLINK_WriteReg(R9, 0x10000178)  returns 0x00 (0000ms, 0626ms total)
T0D0C 000:897 JLINK_WriteReg(R10, 0x00000000)  returns 0x00 (0000ms, 0626ms total)
T0D0C 000:897 JLINK_WriteReg(R11, 0x00000000)  returns 0x00 (0000ms, 0626ms total)
T0D0C 000:897 JLINK_WriteReg(R12, 0x00000000)  returns 0x00 (0000ms, 0626ms total)
T0D0C 000:897 JLINK_WriteReg(R13 (SP), 0x10004000)  returns 0x00 (0000ms, 0626ms total)
T0D0C 000:897 JLINK_WriteReg(R14, 0x10000001)  returns 0x00 (0000ms, 0626ms total)
T0D0C 000:897 JLINK_WriteReg(R15 (PC), 0x10000020)  returns 0x00 (0000ms, 0626ms total)
T0D0C 000:897 JLINK_WriteReg(XPSR, 0x01000000)  returns 0x00 (0000ms, 0626ms total)
T0D0C 000:897 JLINK_WriteReg(MSP, 0x10004000)  returns 0x00 (0000ms, 0626ms total)
T0D0C 000:897 JLINK_WriteReg(PSP, 0x10004000)  returns 0x00 (0000ms, 0626ms total)
T0D0C 000:897 JLINK_WriteReg(CFBP, 0x00000000)  returns 0x00 (0000ms, 0626ms total)
T0D0C 000:897 JLINK_SetBPEx(Addr = 0x10000000, Type = 0xFFFFFFF2)  returns 0x00000010 (0000ms, 0626ms total)
T0D0C 000:897 JLINK_Go() -- CPU_WriteMem(4 bytes @ 0xE0002000) -- CPU_ReadMem(4 bytes @ 0xE0001000) (0003ms, 0629ms total)
T0D0C 000:900 JLINK_IsHalted()  returns TRUE (0002ms, 0631ms total)
T0D0C 000:902 JLINK_ReadReg(R15 (PC))  returns 0x10000000 (0001ms, 0630ms total)
T0D0C 000:903 JLINK_ClrBPEx(BPHandle = 0x00000010)  returns 0x00 (0000ms, 0630ms total)
T0D0C 000:903 JLINK_ReadReg(R0)  returns 0x00000001 (0000ms, 0630ms total)
T0D0C 000:903 JLINK_WriteReg(R0, 0x0000E000)  returns 0x00 (0000ms, 0630ms total)
T0D0C 000:903 JLINK_WriteReg(R1, 0x00002000)  returns 0x00 (0000ms, 0630ms total)
T0D0C 000:903 JLINK_WriteReg(R2, 0x000000FF)  returns 0x00 (0000ms, 0630ms total)
T0D0C 000:903 JLINK_WriteReg(R3, 0x00000000)  returns 0x00 (0000ms, 0630ms total)
T0D0C 000:903 JLINK_WriteReg(R4, 0x00000000)  returns 0x00 (0000ms, 0630ms total)
T0D0C 000:903 JLINK_WriteReg(R5, 0x00000000)  returns 0x00 (0000ms, 0630ms total)
T0D0C 000:903 JLINK_WriteReg(R6, 0x00000000)  returns 0x00 (0000ms, 0630ms total)
T0D0C 000:903 JLINK_WriteReg(R7, 0x00000000)  returns 0x00 (0000ms, 0630ms total)
T0D0C 000:903 JLINK_WriteReg(R8, 0x00000000)  returns 0x00 (0000ms, 0630ms total)
T0D0C 000:903 JLINK_WriteReg(R9, 0x10000178)  returns 0x00 (0000ms, 0630ms total)
T0D0C 000:903 JLINK_WriteReg(R10, 0x00000000)  returns 0x00 (0000ms, 0630ms total)
T0D0C 000:903 JLINK_WriteReg(R11, 0x00000000)  returns 0x00 (0000ms, 0630ms total)
T0D0C 000:903 JLINK_WriteReg(R12, 0x00000000)  returns 0x00 (0000ms, 0630ms total)
T0D0C 000:903 JLINK_WriteReg(R13 (SP), 0x10004000)  returns 0x00 (0000ms, 0630ms total)
T0D0C 000:903 JLINK_WriteReg(R14, 0x10000001)  returns 0x00 (0000ms, 0630ms total)
T0D0C 000:903 JLINK_WriteReg(R15 (PC), 0x1000005E)  returns 0x00 (0000ms, 0630ms total)
T0D0C 000:903 JLINK_WriteReg(XPSR, 0x01000000)  returns 0x00 (0000ms, 0630ms total)
T0D0C 000:903 JLINK_WriteReg(MSP, 0x10004000)  returns 0x00 (0000ms, 0630ms total)
T0D0C 000:903 JLINK_WriteReg(PSP, 0x10004000)  returns 0x00 (0000ms, 0630ms total)
T0D0C 000:903 JLINK_WriteReg(CFBP, 0x00000000)  returns 0x00 (0000ms, 0630ms total)
